
**** 11/06/23 15:02:59 ******* PSpice Lite (March 2016) ******* ID# 10813 ****

 ** Profile: "SCHEMATIC2-oscilator"  [ c:\users\vladc\desktop\tie\p1-pspicefiles\schematic2\oscilator.sim ] 


 ****     CIRCUIT DESCRIPTION


******************************************************************************




** Creating circuit file "oscilator.cir" 
** WARNING: THIS AUTOMATICALLY GENERATED FILE MAY BE OVERWRITTEN BY SUBSEQUENT SIMULATIONS

*Libraries: 
* Profile Libraries :
* Local Libraries :
* From [PSPICE NETLIST] section of C:\Users\vladc\AppData\Roaming\SPB_16.6\cdssetup\OrCAD_PSpice\17.2.0\PSpice.ini file:
.lib "nomd.lib" 

*Analysis directives: 
.TRAN  0 5 0.1 20u 
.OPTIONS ADVCONV
.PROBE64 V(alias(*)) I(alias(*)) W(alias(*)) D(alias(*)) NOISE(alias(*)) 
.INC "..\SCHEMATIC2.net" 



**** INCLUDING SCHEMATIC2.net ****
* source P1
R_R1         0 N00078  2k TC=0,0 
R_R2         N06630 12  3k TC=0,0 
R_R3         N00213 12  800 TC=0,0 
R_R4         N00395 N00266  610 TC=0,0 
R_R5         N00226 N00266  800 TC=0,0 
R_R6         N00395 0  300 TC=0,0 
R_R7         N05931 0  400 TC=0,0 
C_C4         N00226 N00213  20n  TC=0,0 
C_C5         N00213 N05931  1u  TC=0,0 
C_C6         N00213 12  20n  TC=0,0 
Q_Q4         N06630 N00078 N00281 BC856B 
Q_Q5         N00281 N00266 0 BC846B 
Q_Q6         N00213 N00281 N00395 BC846B 
X_D3         N00078 12 awbbzx84c5v1 PARAMS:               

**** RESUMING oscilator.cir ****
.END

**** 11/06/23 15:02:59 ******* PSpice Lite (March 2016) ******* ID# 10813 ****

 ** Profile: "SCHEMATIC2-oscilator"  [ c:\users\vladc\desktop\tie\p1-pspicefiles\schematic2\oscilator.sim ] 


 ****     BJT MODEL PARAMETERS


******************************************************************************




               BC856B          BC846B          
               PNP             NPN             
       LEVEL    1               1            
          IS  336.700000E-15    7.049000E-15 
          BF  277.7           279.1          
          NF    1               1            
         VAF   62.37           62.37         
         IKF     .1686           .2201       
         ISE    1.966000E-12   59.160000E-15 
          NE    2.123           1.81         
          BR    7.16            3.816        
          NR    1               1            
         IKR    9.677           1.859        
         ISC  196.000000E-12   16.170000E-15 
          NC    1.815           2.394        
          NK     .545            .6305       
         ISS    0               0            
          RE    0               0            
          RC    2.891           1.508        
         CJE    8.397000E-12    9.485000E-12 
         VJE     .5              .5          
         MJE     .3865           .3333       
         CJC   11.510000E-12    7.287000E-12 
         VJC     .5              .5          
         MJC     .3626           .3333       
        XCJC    1               1            
         CJS    0               0            
         VJS     .75             .75         
          TF  605.900000E-12  664.000000E-12 
         XTF   23.02          147            
         VTF   10              10            
         ITF    2.133           4.664        
          TR   10.000000E-09   10.000000E-09 
         XTB    1.5             1.5          
          KF    0               0            
          AF    1               1            
          CN    2.2             2.42         
           D     .52             .87         


**** 11/06/23 15:02:59 ******* PSpice Lite (March 2016) ******* ID# 10813 ****

 ** Profile: "SCHEMATIC2-oscilator"  [ c:\users\vladc\desktop\tie\p1-pspicefiles\schematic2\oscilator.sim ] 


 ****     INITIAL TRANSIENT SOLUTION       TEMPERATURE =   27.000 DEG C


******************************************************************************



 NODE   VOLTAGE     NODE   VOLTAGE     NODE   VOLTAGE     NODE   VOLTAGE


(   12) 4.606E-06  (N00078)-19.60E-15 (N00213) 4.606E-06 (N00226) 2.915E-15     

(N00266) 2.915E-15 (N00281) 1.256E-06 (N00395) 2.460E-15 (N05931)    0.0000     

(N06630) 4.606E-06 (X_D3.xinstbzx84c5v1.1)   -4.6247                            

(X_D3.xinstbzx84c5v1.3)    4.6247     (X_D3.xinstbzx84c5v1.9)-282.7E-15     




    VOLTAGE SOURCE CURRENTS
    NAME         CURRENT


    TOTAL POWER DISSIPATION   0.00E+00  WATTS


          JOB ABORTED

**** 11/06/23 15:02:59 ******* PSpice Lite (March 2016) ******* ID# 10813 ****

 ** Profile: "SCHEMATIC2-oscilator"  [ c:\users\vladc\desktop\tie\p1-pspicefiles\schematic2\oscilator.sim ] 


 ****     JOB STATISTICS SUMMARY


******************************************************************************



  Total job time (using Solver 1)   =       15.03
