
**** 11/18/23 14:20:41 ******* PSpice Lite (March 2016) ******* ID# 10813 ****

 ** Profile: "SCHEMATIC2-sim2"  [ c:\users\vladc\desktop\tie\p1-pspicefiles\schematic2\sim2.sim ] 


 ****     CIRCUIT DESCRIPTION


******************************************************************************




** Creating circuit file "sim2.cir" 
** WARNING: THIS AUTOMATICALLY GENERATED FILE MAY BE OVERWRITTEN BY SUBSEQUENT SIMULATIONS

*Libraries: 
* Profile Libraries :
* Local Libraries :
* From [PSPICE NETLIST] section of C:\Users\vladc\AppData\Roaming\SPB_16.6\cdssetup\OrCAD_PSpice\17.2.0\PSpice.ini file:
.lib "nomd.lib" 

*Analysis directives: 
.TRAN  0 5 1 50u 
.OPTIONS ADVCONV
.PROBE64 V(alias(*)) I(alias(*)) W(alias(*)) D(alias(*)) NOISE(alias(*)) 
.INC "..\SCHEMATIC2.net" 



**** INCLUDING SCHEMATIC2.net ****
* source P1
R_R1         0 N00078  2.2k TC=0,0 
R_R2         N06630 VCC  2k TC=0,0 
R_R3         N00213 VCC  15 TC=0,0 
R_R4         N00470 N00266  680 TC=0,0 
R_R5         N00226 N00266  15 TC=0,0 
R_R6         N00470 0  330 TC=0,0 
C_C4         N00226 N00213  2.2u  TC=0,0 
C_C6         N00213 VCC  2.2u  TC=0,0 
Q_Q3         N00281 N00078 N06630 BC856B 
X_D4         N00078 VCC awbbzx84c2v7 PARAMS:               
V_V1         VCC 0 11Vdc
R_R13         N00213 N22112  100k TC=0,0 
Q_Q4         N22250 N22112 N22275 BC817-25 
Q_Q5         N26331 N22250 N22275 BC817-25 
R_R14         0 N22275  6.8k TC=0,0 
R_R15         N22250 VCC  2.5k TC=0,0 
R_R16         N26331 VCC  2.5k TC=0,0 
R_R17         N26331 N28226  50k TC=0,0 
C_C9         0 N28226  22n  TC=0,0 
R_R18         0 N28226  400 TC=0,0 
Q_Q6         N00281 N00266 0 BC817-25 
Q_Q7         N00213 N00281 N00470 BC817-25 

**** RESUMING sim2.cir ****
.END

**** 11/18/23 14:20:41 ******* PSpice Lite (March 2016) ******* ID# 10813 ****

 ** Profile: "SCHEMATIC2-sim2"  [ c:\users\vladc\desktop\tie\p1-pspicefiles\schematic2\sim2.sim ] 


 ****     BJT MODEL PARAMETERS


******************************************************************************




               BC856B          BC817-25        
               PNP             NPN             
       LEVEL    1               1            
          IS  336.700000E-15   32.530000E-15 
          BF  277.7           294.4          
          NF    1               1            
         VAF   62.37          100            
         IKF     .1686           .8311       
         ISE    1.966000E-12  318.500000E-15 
          NE    2.123           1.642        
          BR    7.16            5.855        
          NR    1               1            
         IKR    9.677            .1075       
         ISC  196.000000E-12  199.700000E-15 
          NC    1.815           2.09         
          NK     .545            .5663       
         ISS    0               0            
          RE    0               0            
          RC    2.891            .4196       
         CJE    8.397000E-12   71.140000E-12 
         VJE     .5              .5          
         MJE     .3865           .3333       
         CJC   11.510000E-12   24.290000E-12 
         VJC     .5              .5          
         MJC     .3626           .3333       
        XCJC    1               1            
         CJS    0               0            
         VJS     .75             .75         
          TF  605.900000E-12  660.800000E-12 
         XTF   23.02           88.29         
         VTF   10              10            
         ITF    2.133           2.569        
          TR   10.000000E-09   10.000000E-09 
         XTB    1.5             1.5          
          KF    0               0            
          AF    1               1            
          CN    2.2             2.42         
           D     .52             .87         


**** 11/18/23 14:20:41 ******* PSpice Lite (March 2016) ******* ID# 10813 ****

 ** Profile: "SCHEMATIC2-sim2"  [ c:\users\vladc\desktop\tie\p1-pspicefiles\schematic2\sim2.sim ] 


 ****     INITIAL TRANSIENT SOLUTION       TEMPERATURE =   27.000 DEG C


******************************************************************************



 NODE   VOLTAGE     NODE   VOLTAGE     NODE   VOLTAGE     NODE   VOLTAGE


(  VCC)   11.0000  (N00078)    8.3042 (N00213)   10.9710 (N00226)     .6259     

(N00266)     .6259 (N00281)    1.2677 (N00470)     .6288 (N06630)    8.8674     

(N22112)    8.6683 (N22250)    8.1028 (N22275)    8.0371 (N26331)   10.4800     

(N28226)     .0832 (X_D4.xinstbzx84c2v7.1)    8.7754                            

(X_D4.xinstbzx84c2v7.3)    2.2246     (X_D4.xinstbzx84c2v7.9)    8.3045     




    VOLTAGE SOURCE CURRENTS
    NAME         CURRENT

    V_V1        -8.130E-03

    TOTAL POWER DISSIPATION   8.94E-02  WATTS



          JOB CONCLUDED

**** 11/18/23 14:20:41 ******* PSpice Lite (March 2016) ******* ID# 10813 ****

 ** Profile: "SCHEMATIC2-sim2"  [ c:\users\vladc\desktop\tie\p1-pspicefiles\schematic2\sim2.sim ] 


 ****     JOB STATISTICS SUMMARY


******************************************************************************



  Total job time (using Solver 1)   =        5.78
